
**** 04/01/18 16:03:57 ****** PSpice 16.5.0 (April 2011) ****** ID# 0 ********

 ** Profile: "SCHEMATIC1-bias"  [ D:\DevelopWorkSpace\Github\ORCAD_Projects\kingcellooutbuffer-pspicefiles\schematic1\bias.sim ] 


 ****     CIRCUIT DESCRIPTION


******************************************************************************




** Creating circuit file "bias.cir" 
** WARNING: THIS AUTOMATICALLY GENERATED FILE MAY BE OVERWRITTEN BY SUBSEQUENT SIMULATIONS

*Libraries: 
* Profile Libraries :
* Local Libraries :
* From [PSPICE NETLIST] section of D:\DevelopProgramFiles\Cadence\SPB_16.5\tools\PSpice\PSpice.ini file:
.lib "nom.lib" 

*Analysis directives: 
.OP
.PROBE V(alias(*)) I(alias(*)) W(alias(*)) D(alias(*)) NOISE(alias(*)) 
.INC "..\SCHEMATIC1.net" 



**** INCLUDING SCHEMATIC1.net ****
* source KINGCELLOOUTBUFFER
X_D3         N14723 N14774 D1N5314
X_D4         N14767 N14727 D1N5314
Q_Q1         N14797 N14854 N14801 MPS8099
Q_Q2         N14789 N14850 N14793 MPS8599
Q_Q3         N14723 N14846 N14741 Q2N3053
Q_Q4         N14749 N14763 N14727 Q2N3073
R_R1         INPUT N14850  10 TC=0,0 
R_R2         N14854 INPUT  10 TC=0,0 
R_R3         N14793 N14749  10 TC=0,0 
R_R4         N14797 N14741  10 TC=0,0 
R_R5         N14789 N14774  51 TC=0,0 
R_R6         N14801 N14767  51 TC=0,0 
R_R7         N14767 N14763  10 TC=0,0 
R_R8         N14774 N14846  10 TC=0,0 
R_R9         OUTPUT N14741  10 TC=0,0 
R_R10         N14749 OUTPUT  10 TC=0,0 
V_V1         N14723 0 25Vdc
V_V2         0 N14727 25Vdc
V_V3         INPUT 0 DC 0Vdc AC 0.1Vac 

**** RESUMING bias.cir ****
.END

**** 04/01/18 16:03:57 ****** PSpice 16.5.0 (April 2011) ****** ID# 0 ********

 ** Profile: "SCHEMATIC1-bias"  [ D:\DevelopWorkSpace\Github\ORCAD_Projects\kingcellooutbuffer-pspicefiles\schematic1\bias.sim ] 


 ****     BJT MODEL PARAMETERS


******************************************************************************




               MPS8099         MPS8599         Q2N3053         Q2N3073         
               NPN             PNP             NPN             PNP             
       LEVEL    1               1               1               1            
          IS    4.872000E-15   10.680000E-15   14.100000E-15  650.600000E-18 
          BF    9.599000E+03  187.7           138.2            60.06         
          NF    1               1               1               1            
         VAF  100             100             100             115.7          
         IKF     .1434           .2203           .75            1.079        
         ISE   14.650000E-15   26.070000E-15                  211.400000E-15 
          NE    1.315           1.401                           1.829        
          BR    6.935           1.833           5.187           4.32         
          NR    1               1               1               1            
         ISS    0               0               0               0            
          RB   10              10              10              10            
          RE    0               0               0               0            
          RC     .7              .8              .7              .715        
         CJE   10.490000E-12   25.110000E-12   55.060000E-12   19.820000E-12 
         VJE     .75             .75             .75             .75         
         MJE     .4602           .3626           .1553           .3357       
         CJC    5.805000E-12   14.160000E-12   15.690000E-12   14.760000E-12 
         VJC     .75             .75             .75             .75         
         MJC     .4312           .5585           .3603           .5383       
        XCJC    1               1               1               1            
         CJS    0               0               0               0            
         VJS     .75             .75             .75             .75         
          TF  407.000000E-12  591.100000E-12  808.100000E-12  761.300000E-12 
         XTF    2.5            50              55               1.7          
         VTF    3              12               5               5            
         ITF     .18            1.5             1.2              .65         
          TR  565.000000E-12  358.600000E-09  830.800000E-12  122.000000E-09 
         XTB    1.5             1.5             1.5             1.5          
          KF    0               0               0               0            
          AF    1               1               1               1            
          CN    2.42            2.2             2.42            2.2          
           D     .87             .52             .87             .52         


**** 04/01/18 16:03:57 ****** PSpice 16.5.0 (April 2011) ****** ID# 0 ********

 ** Profile: "SCHEMATIC1-bias"  [ D:\DevelopWorkSpace\Github\ORCAD_Projects\kingcellooutbuffer-pspicefiles\schematic1\bias.sim ] 


 ****     Junction FET MODEL PARAMETERS


******************************************************************************




               X_D3.jx         X_D4.jx         
               NJF             NJF             
         VTO   -2.506          -2.506        
        BETA  750.000000E-06  750.000000E-06 
      LAMBDA  531.900000E-06  531.900000E-06 
           N    2               2            
          RD    1               1            
         CGD    6.000000E-12    6.000000E-12 
       VTOTC   -2.500000E-03   -2.500000E-03 
     BETATCE    -.5             -.5          


**** 04/01/18 16:03:57 ****** PSpice 16.5.0 (April 2011) ****** ID# 0 ********

 ** Profile: "SCHEMATIC1-bias"  [ D:\DevelopWorkSpace\Github\ORCAD_Projects\kingcellooutbuffer-pspicefiles\schematic1\bias.sim ] 


 ****     SMALL SIGNAL BIAS SOLUTION       TEMPERATURE =   27.000 DEG C


******************************************************************************



 NODE   VOLTAGE     NODE   VOLTAGE     NODE   VOLTAGE     NODE   VOLTAGE


(INPUT)    0.0000  (N14723)   25.0000 (N14727)  -25.0000 (N14741)     .2507     

(N14749)     .0410 (N14763)    -.7821 (N14767)    -.8077 (N14774)     .9588     

(N14789)     .7193 (N14793)     .0713 (N14797)     .2287 (N14801)    -.6947     

(N14846)     .9580 (N14850)     .0166 (N14854)-110.4E-06 (OUTPUT)     .1459 




    VOLTAGE SOURCE CURRENTS
    NAME         CURRENT

    V_V1        -1.739E-02
    V_V2        -1.573E-02
    V_V3         1.654E-03

    TOTAL POWER DISSIPATION   8.28E-01  WATTS


**** 04/01/18 16:03:57 ****** PSpice 16.5.0 (April 2011) ****** ID# 0 ********

 ** Profile: "SCHEMATIC1-bias"  [ D:\DevelopWorkSpace\Github\ORCAD_Projects\kingcellooutbuffer-pspicefiles\schematic1\bias.sim ] 


 ****     OPERATING POINT INFORMATION      TEMPERATURE =   27.000 DEG C


******************************************************************************






**** BIPOLAR JUNCTION TRANSISTORS


NAME         Q_Q1        Q_Q2        Q_Q3        Q_Q4      
MODEL        MPS8099     MPS8599     Q2N3053     Q2N3073   
IB           1.10E-05   -1.66E-03    7.46E-05   -2.56E-03 
IC           2.20E-03    4.70E-03    1.26E-02    1.35E-02 
VBE          6.95E-01   -5.46E-02    7.07E-01    2.42E+01 
VBC         -2.29E-01   -7.03E-01   -2.40E+01   -8.23E-01 
VCE          9.23E-01    6.48E-01    2.47E+01    2.50E+01 
BETADC       2.00E+02   -2.82E+00    1.69E+02   -5.29E+00 
GM           8.39E-02   -1.17E-01    4.81E-01   -4.24E-01 
RPI          3.06E+03    4.84E+11    3.47E+02    6.01E+13 
RX           1.00E+01    1.00E+01    1.00E+01    1.00E+01 
RO           4.55E+04    8.54E+00    9.83E+03    2.36E+00 
CBE          5.43E-11    2.56E-11    4.59E-10    6.11E-12 
CBC          5.18E-12    4.23E-08    4.45E-12    5.21E-08 
CJS          0.00E+00    0.00E+00    0.00E+00    0.00E+00 
BETAAC       2.57E+02   -5.67E+10    1.67E+02   -2.55E+13 
CBX/CBX2     0.00E+00    0.00E+00    0.00E+00    0.00E+00 
FT/FT2       2.25E+08   -4.40E+05    1.65E+08   -1.29E+06 




**** JFETS


NAME         X_D3.j1     X_D4.j1   
MODEL        X_D3.jx     X_D4.jx   
ID           4.77E-03    4.77E-03 
VGS          0.00E+00    0.00E+00 
VDS          2.40E+01    2.42E+01 
GM           3.81E-03    3.81E-03 
GDS          2.51E-06    2.51E-06 
CGS          0.00E+00    0.00E+00 
CGD          1.20E-12    1.20E-12 

          JOB CONCLUDED

**** 04/01/18 16:03:57 ****** PSpice 16.5.0 (April 2011) ****** ID# 0 ********

 ** Profile: "SCHEMATIC1-bias"  [ D:\DevelopWorkSpace\Github\ORCAD_Projects\kingcellooutbuffer-pspicefiles\schematic1\bias.sim ] 


 ****     JOB STATISTICS SUMMARY


******************************************************************************



  Total job time (using Solver 1)   =         .02
